T9410 000:033.001   SEGGER J-Link V7.22 Log File
T9410 000:033.125   DLL Compiled: Jun  2 2021 10:03:15
T9410 000:033.139   Logging started @ 2022-10-11 13:44
T9410 000:033.152 - 33.160ms
T9410 000:033.195 JLINK_SetWarnOutHandler(...)
T9410 000:033.210 - 0.021ms
T9410 000:033.224 JLINK_OpenEx(...)
T9410 000:034.926   Firmware: J-Link V9 compiled May  7 2021 16:26:12
T9410 000:035.409   Firmware: J-Link V9 compiled May  7 2021 16:26:12
T9410 000:035.604   Decompressing FW timestamp took 146 us
T9410 000:041.981   Hardware: V9.20
T9410 000:042.016   S/N: 4294967295
T9410 000:042.036   OEM: SEGGER
T9410 000:042.056   Feature(s): RDI, FlashBP, FlashDL, JFlash, GDB
T9410 000:043.354   TELNET listener socket opened on port 19021
T9410 000:043.623   WEBSRV Starting webserver
T9410 000:043.783   WEBSRV Webserver running on local port 19080
T9410 000:043.806 - 10.588ms returns "O.K."
T9410 000:043.827 JLINK_GetEmuCaps()
T9410 000:043.841 - 0.020ms returns 0xB9FF7BBF
T9410 000:043.858 JLINK_TIF_GetAvailable(...)
T9410 000:044.025 - 0.178ms
T9410 000:044.048 JLINK_SetErrorOutHandler(...)
T9410 000:044.061 - 0.019ms
T9410 000:044.088 JLINK_ExecCommand("ProjectFile = "G:\LEVEL3\LEVEL.3培训资料\无感FOC培训大纲与例程\LKS08x_FOC_SensorLessV4.27\JLinkSettings.ini"", ...). 
T9410 000:053.952   Ref file found at: C:\Keil_v5\ARM\Segger\JLinkDevices.ref
T9410 000:054.108   XML referenced by ref file: C:\Program Files (x86)\SEGGER\JLink\JLinkDevices.xml
T9410 000:054.903   C:\Program Files (x86)\SEGGER\JLink\JLinkDevices.xml evaluated successfully.
T9410 000:131.225   Device "CORTEX-M0" selected.
T9410 000:132.758 - 88.696ms returns 0x00
T9410 000:132.962 JLINK_ExecCommand("Device = LKS32MC081C8T8", ...). 
T9410 000:133.479   Device "CORTEX-M0" selected.
T9410 000:134.223 - 1.251ms returns 0x00
T9410 000:134.271 JLINK_GetHardwareVersion()
T9410 000:134.284 - 0.020ms returns 92000
T9410 000:134.321 JLINK_GetDLLVersion()
T9410 000:134.348 - 0.033ms returns 72200
T9410 000:134.360 JLINK_GetOEMString(...)
T9410 000:134.373 JLINK_GetFirmwareString(...)
T9410 000:134.385 - 0.017ms
T9410 000:134.411 JLINK_GetDLLVersion()
T9410 000:134.423 - 0.018ms returns 72200
T9410 000:134.435 JLINK_GetCompileDateTime()
T9410 000:134.447 - 0.017ms
T9410 000:134.464 JLINK_GetFirmwareString(...)
T9410 000:134.476 - 0.017ms
T9410 000:134.492 JLINK_GetHardwareVersion()
T9410 000:134.504 - 0.017ms returns 92000
T9410 000:134.519 JLINK_GetSN()
T9410 000:134.532 - 0.018ms returns -1
T9410 000:134.544 JLINK_GetOEMString(...)
T9410 000:134.562 JLINK_TIF_Select(JLINKARM_TIF_SWD)
T9410 000:135.426 - 0.892ms returns 0x00
T9410 000:135.464 JLINK_HasError()
T9410 000:135.494 JLINK_SetSpeed(5000)
T9410 000:135.655 - 0.186ms
T9410 000:135.689 JLINK_GetId()
T9410 000:136.713   Found SW-DP with ID 0x0BB11477
T9410 000:139.902   DPIDR: 0x0BB11477
T9410 000:139.956   Scanning AP map to find all available APs
T9410 000:140.588   AP[1]: Stopped AP scan as end of AP map has been reached
T9410 000:140.651   AP[0]: AHB-AP (IDR: 0x04770021)
T9410 000:140.673   Iterating through AP map to find AHB-AP to use
T9410 000:141.681   AP[0]: Core found
T9410 000:141.712   AP[0]: AHB-AP ROM base: 0xE00FF000
T9410 000:142.254   CPUID register: 0x410CC200. Implementer code: 0x41 (ARM)
T9410 000:142.290   Found Cortex-M0 r0p0, Little endian.
T9410 000:243.684   -- Max. mem block: 0x00010E60
T9410 000:243.999   CPU_ReadMem(4 bytes @ 0xE000EDF0)
T9410 000:244.456   CPU_WriteMem(4 bytes @ 0xE000EDF0)
T9410 000:244.901   CPU_ReadMem(4 bytes @ 0xE0002000)
T9410 000:245.292   FPUnit: 2 code (BP) slots and 0 literal slots
T9410 000:245.341   CPU_ReadMem(4 bytes @ 0xE000EDFC)
T9410 000:245.675   CPU_WriteMem(4 bytes @ 0xE000EDFC)
T9410 000:246.064   CPU_ReadMem(4 bytes @ 0xE0001000)
T9410 000:246.532   CPU_WriteMem(4 bytes @ 0xE0001000)
T9410 000:246.946   CoreSight components:
T9410 000:247.002   ROMTbl[0] @ E00FF000
T9410 000:247.046   CPU_ReadMem(64 bytes @ 0xE00FF000)
T9410 000:247.796   CPU_ReadMem(32 bytes @ 0xE000EFE0)
T9410 000:248.417   ROMTbl[0][0]: E000E000, CID: B105E00D, PID: 000BB008 SCS
T9410 000:248.485   CPU_ReadMem(32 bytes @ 0xE0001FE0)
T9410 000:249.117   ROMTbl[0][1]: E0001000, CID: B105E00D, PID: 000BB00A DWT
T9410 000:249.174   CPU_ReadMem(32 bytes @ 0xE0002FE0)
T9410 000:249.749   ROMTbl[0][2]: E0002000, CID: B105E00D, PID: 000BB00B FPB
T9410 000:250.071 - 114.404ms returns 0x0BB11477
T9410 000:250.118 JLINK_GetDLLVersion()
T9410 000:250.147 - 0.043ms returns 72200
T9410 000:250.180 JLINK_CORE_GetFound()
T9410 000:250.208 - 0.043ms returns 0x60000FF
T9410 000:250.241 JLINK_GetDebugInfo(0x100 = JLINKARM_ROM_TABLE_ADDR_INDEX)
T9410 000:250.271   Value=0xE00FF000
T9410 000:250.313 - 0.086ms returns 0
T9410 000:250.358 JLINK_GetDebugInfo(0x100 = JLINKARM_ROM_TABLE_ADDR_INDEX)
T9410 000:250.389   Value=0xE00FF000
T9410 000:250.431 - 0.086ms returns 0
T9410 000:250.463 JLINK_GetDebugInfo(0x101 = JLINKARM_DEBUG_INFO_ETM_ADDR_INDEX)
T9410 000:250.501   Value=0x00000000
T9410 000:250.544 - 0.095ms returns 0
T9410 000:250.583 JLINK_ReadMemEx(0xE0041FF0, 0x10 Bytes, Flags = 0x02000004)
T9410 000:250.687   CPU_ReadMem(16 bytes @ 0xE0041FF0)
T9410 000:251.119   Data:  00 00 00 00 00 00 00 00 00 00 00 00 00 00 00 00
T9410 000:251.173 - 0.605ms returns 16 (0x10)
T9410 000:251.211 JLINK_GetDebugInfo(0x102 = JLINKARM_DEBUG_INFO_MTB_ADDR_INDEX)
T9410 000:251.242   Value=0x00000000
T9410 000:251.283 - 0.086ms returns 0
T9410 000:251.315 JLINK_GetDebugInfo(0x103 = JLINKARM_DEBUG_INFO_TPIU_ADDR_INDEX)
T9410 000:251.345   Value=0x00000000
T9410 000:251.387 - 0.085ms returns 0
T9410 000:251.418 JLINK_ReadMemEx(0xE0040FF0, 0x10 Bytes, Flags = 0x02000004)
T9410 000:251.471   CPU_ReadMem(16 bytes @ 0xE0040FF0)
T9410 000:251.958   Data:  00 00 00 00 00 00 00 00 00 00 00 00 00 00 00 00
T9410 000:252.015 - 0.611ms returns 16 (0x10)
T9410 000:252.055 JLINK_GetDebugInfo(0x104 = JLINKARM_DEBUG_INFO_ITM_ADDR_INDEX)
T9410 000:252.088   Value=0xE0000000
T9410 000:252.130 - 0.089ms returns 0
T9410 000:252.162 JLINK_GetDebugInfo(0x105 = JLINKARM_DEBUG_INFO_DWT_ADDR_INDEX)
T9410 000:252.192   Value=0xE0001000
T9410 000:252.233 - 0.085ms returns 0
T9410 000:252.265 JLINK_GetDebugInfo(0x106 = JLINKARM_DEBUG_INFO_FPB_ADDR_INDEX)
T9410 000:252.294   Value=0xE0002000
T9410 000:252.335 - 0.084ms returns 0
T9410 000:252.367 JLINK_GetDebugInfo(0x107 = JLINKARM_DEBUG_INFO_NVIC_ADDR_INDEX)
T9410 000:252.396   Value=0xE000E000
T9410 000:252.438 - 0.085ms returns 0
T9410 000:252.469 JLINK_GetDebugInfo(0x10C = JLINKARM_DEBUG_INFO_DBG_ADDR_INDEX)
T9410 000:252.497   Value=0xE000EDF0
T9410 000:252.539 - 0.084ms returns 0
T9410 000:252.570 JLINK_GetDebugInfo(0x01 = Unknown)
T9410 000:252.601   Value=0x00000000
T9410 000:252.642 - 0.086ms returns 0
T9410 000:252.674 JLINK_ReadMemU32(0xE000ED00, 0x1 Items)
T9410 000:252.714   CPU_ReadMem(4 bytes @ 0xE000ED00)
T9410 000:253.098   Data:  00 C2 0C 41
T9410 000:253.162   Debug reg: CPUID
T9410 000:253.204 - 0.544ms returns 1 (0x1)
T9410 000:253.242 JLINK_GetDebugInfo(0x10F = JLINKARM_DEBUG_INFO_HAS_CORTEX_M_SECURITY_EXT_INDEX)
T9410 000:253.273   Value=0x00000000
T9410 000:253.315 - 0.088ms returns 0
T9410 000:253.349 JLINK_HasError()
T9410 000:253.380 JLINK_SetResetType(JLINKARM_CM3_RESET_TYPE_NORMAL)
T9410 000:253.409 - 0.043ms returns JLINKARM_CM3_RESET_TYPE_NORMAL
T9410 000:253.443 JLINK_Reset()
T9410 000:253.513   CPU is running
T9410 000:253.561   CPU_WriteMem(4 bytes @ 0xE000EDF0)
T9410 000:253.978   CPU is running
T9410 000:254.046   CPU_WriteMem(4 bytes @ 0xE000EDFC)
T9410 000:254.519   Reset: Halt core after reset via DEMCR.VC_CORERESET.
T9410 000:255.132   Reset: Reset device via AIRCR.SYSRESETREQ.
T9410 000:255.189   CPU is running
T9410 000:255.235   CPU_WriteMem(4 bytes @ 0xE000ED0C)
T9410 000:308.913   CPU_ReadMem(4 bytes @ 0xE000EDF0)
T9410 000:309.561   CPU_ReadMem(4 bytes @ 0xE000EDF0)
T9410 000:310.245   CPU is running
T9410 000:310.393   CPU_WriteMem(4 bytes @ 0xE000EDF0)
T9410 000:310.918   CPU is running
T9410 000:311.052   CPU_WriteMem(4 bytes @ 0xE000EDFC)
T9410 000:317.036   CPU_ReadMem(4 bytes @ 0xE000EDF0)
T9410 000:320.065   CPU_WriteMem(4 bytes @ 0xE0002000)
T9410 000:320.783   CPU_ReadMem(4 bytes @ 0xE000EDFC)
T9410 000:321.353   CPU_ReadMem(4 bytes @ 0xE0001000)
T9410 000:321.998   CPU_WriteMem(4 bytes @ 0xE0001000)
T9410 000:322.679 - 69.292ms
T9410 000:322.837 JLINK_HasError()
T9410 000:322.914 JLINK_ReadReg(R15 (PC))
T9410 000:322.995 - 0.112ms returns 0x000000D8
T9410 000:323.065 JLINK_ReadReg(XPSR)
T9410 000:323.139 - 0.114ms returns 0xC1000000
T9410 000:323.222 JLINK_Halt()
T9410 000:323.284 - 0.093ms returns 0x00
T9410 000:323.353 JLINK_ReadMemU32(0xE000EDF0, 0x1 Items)
T9410 000:323.434   CPU_ReadMem(4 bytes @ 0xE000EDF0)
T9410 000:324.036   Data:  03 00 03 00
T9410 000:324.165   Debug reg: DHCSR
T9410 000:324.256 - 0.934ms returns 1 (0x1)
T9410 000:324.376 JLINK_WriteU32_64(0xE000EDF0, 0xA05F0003)
T9410 000:324.447   Debug reg: DHCSR
T9410 000:325.233   CPU_WriteMem(4 bytes @ 0xE000EDF0)
T9410 000:325.897 - 1.576ms returns 0 (0x00000000)
T9410 000:326.007 JLINK_WriteU32_64(0xE000EDFC, 0x01000000)
T9410 000:326.073   Debug reg: DEMCR
T9410 000:326.196   CPU_WriteMem(4 bytes @ 0xE000EDFC)
T9410 000:326.809 - 0.858ms returns 0 (0x00000000)
T9410 000:327.127 JLINK_GetHWStatus(...)
T9410 000:327.551 - 0.480ms returns 0
T9410 000:327.724 JLINK_GetNumBPUnits(Type = 0xFFFFFF00)
T9410 000:327.795 - 0.102ms returns 0x02
T9410 000:327.861 JLINK_GetNumBPUnits(Type = 0xF0)
T9410 000:327.921 - 0.091ms returns 0x2000
T9410 000:327.987 JLINK_GetNumWPUnits()
T9410 000:328.047 - 0.090ms returns 2
T9410 000:328.159 JLINK_GetSpeed()
T9410 000:328.223 - 0.093ms returns 4000
T9410 000:328.310 JLINK_ReadMemU32(0xE000E004, 0x1 Items)
T9410 000:328.398   CPU_ReadMem(4 bytes @ 0xE000E004)
T9410 000:328.976   Data:  00 00 00 00
T9410 000:329.101 - 0.822ms returns 1 (0x1)
T9410 000:329.213 JLINK_HasError()
T9410 000:329.286 JLINK_ReadReg(R15 (PC))
T9410 000:329.362 - 0.108ms returns 0x000000D8
T9410 000:329.430 JLINK_ReadReg(XPSR)
T9410 000:329.494 - 0.096ms returns 0xC1000000
T9410 000:444.877 JLINK_HasError()
T9410 000:445.041 JLINK_SetResetType(JLINKARM_CM3_RESET_TYPE_NORMAL)
T9410 000:445.116 - 0.106ms returns JLINKARM_CM3_RESET_TYPE_NORMAL
T9410 000:445.186 JLINK_Reset()
T9410 000:445.287   CPU_WriteMem(4 bytes @ 0xE000EDF0)
T9410 000:445.971   CPU_WriteMem(4 bytes @ 0xE000EDFC)
T9410 000:446.646   Reset: Halt core after reset via DEMCR.VC_CORERESET.
T9410 000:447.386   Reset: Reset device via AIRCR.SYSRESETREQ.
T9410 000:447.477   CPU_WriteMem(4 bytes @ 0xE000ED0C)
T9410 000:500.828   CPU_ReadMem(4 bytes @ 0xE000EDF0)
T9410 000:501.416   CPU_ReadMem(4 bytes @ 0xE000EDF0)
T9410 000:502.008   CPU_WriteMem(4 bytes @ 0xE000EDF0)
T9410 000:502.661   CPU_WriteMem(4 bytes @ 0xE000EDFC)
T9410 000:509.038   CPU_ReadMem(4 bytes @ 0xE000EDF0)
T9410 000:512.436   CPU_WriteMem(4 bytes @ 0xE0002000)
T9410 000:513.119   CPU_ReadMem(4 bytes @ 0xE000EDFC)
T9410 000:513.753   CPU_ReadMem(4 bytes @ 0xE0001000)
T9410 000:514.377   CPU_WriteMem(4 bytes @ 0xE0001000)
T9410 000:514.957 - 69.838ms
T9410 000:515.302 JLINK_HasError()
T9410 000:515.405 JLINK_ReadReg(R15 (PC))
T9410 000:515.485 - 0.111ms returns 0x000000D8
T9410 000:515.553 JLINK_ReadReg(XPSR)
T9410 000:515.618 - 0.105ms returns 0xC1000000
T9410 000:891.496 JLINK_ReadMemEx(0x000000D8, 0x3C Bytes, Flags = 0x02000000)
T9410 000:891.537   CPU_ReadMem(60 bytes @ 0x000000D8)
T9410 000:892.051   Data:  06 48 80 F3 08 88 06 48 80 47 06 48 00 47 FE E7 ...
T9410 000:892.073 - 0.583ms returns 60 (0x3C)
T9410 000:892.088 JLINK_ReadMemEx(0x000000D8, 0x2 Bytes, Flags = 0x02000000)
T9410 000:892.105   CPU_ReadMem(2 bytes @ 0x000000D8)
T9410 000:892.357   Data:  06 48
T9410 000:892.383 - 0.301ms returns 2 (0x2)
T9410 000:892.399 JLINK_ReadMemEx(0x000000DA, 0x2 Bytes, Flags = 0x02000000)
T9410 000:892.417   CPU_ReadMem(2 bytes @ 0x000000DA)
T9410 000:892.630   Data:  80 F3
T9410 000:892.653 - 0.260ms returns 2 (0x2)
T9410 000:982.143 JLINK_ReadMemEx(0x40000008, 0x8 Bytes, Flags = 0x02000004)
T9410 000:982.183   CPU_ReadMem(8 bytes @ 0x40000008)
T9410 000:982.433   Data:  00 00 00 00 00 00 00 00
T9410 000:982.458 - 0.322ms returns 8 (0x8)
T9410 000:982.484 JLINK_ReadMemEx(0x40000010, 0x4 Bytes, Flags = 0x02000004)
T9410 000:982.504   CPU_ReadMem(4 bytes @ 0x40000010)
T9410 000:982.756   Data:  18 08 00 00
T9410 000:982.778 - 0.300ms returns 4 (0x4)
T9410 000:982.793 JLINK_ReadMemEx(0x40000018, 0x4 Bytes, Flags = 0x02000004)
T9410 000:982.809   CPU_ReadMem(4 bytes @ 0x40000018)
T9410 000:983.030   Data:  42 A0 00 00
T9410 000:983.052 - 0.264ms returns 4 (0x4)
T9410 000:983.067 JLINK_ReadMemEx(0x40000020, 0x30 Bytes, Flags = 0x02000004)
T9410 000:983.083   CPU_ReadMem(48 bytes @ 0x40000020)
T9410 000:983.564   Data:  00 00 00 00 40 00 00 00 00 00 00 00 28 07 00 00 ...
T9410 000:983.584 - 0.522ms returns 48 (0x30)
T9410 000:983.598 JLINK_ReadMemEx(0x40000050, 0x4 Bytes, Flags = 0x02000004)
T9410 000:983.613   CPU_ReadMem(4 bytes @ 0x40000050)
T9410 000:983.831   Data:  0D 00 00 00
T9410 000:983.852 - 0.259ms returns 4 (0x4)
T9410 000:983.866 JLINK_ReadMemEx(0x4000007C, 0xC Bytes, Flags = 0x02000004)
T9410 000:983.881   CPU_ReadMem(12 bytes @ 0x4000007C)
T9410 000:984.135   Data:  93 00 00 00 FF 01 00 00 00 00 00 00
T9410 000:984.154 - 0.293ms returns 12 (0xC)
T9410 000:984.169 JLINK_ReadMemEx(0x40000088, 0x4 Bytes, Flags = 0x02000004)
T9410 000:984.183   CPU_ReadMem(4 bytes @ 0x40000088)
T9410 000:984.400   Data:  07 00 00 00
T9410 000:984.419 - 0.256ms returns 4 (0x4)
T9410 000:984.434 JLINK_ReadMemEx(0x40000090, 0x4 Bytes, Flags = 0x02000004)
T9410 000:984.449   CPU_ReadMem(4 bytes @ 0x40000090)
T9410 000:984.679   Data:  00 00 00 00
T9410 000:984.699 - 0.271ms returns 4 (0x4)
T9410 000:984.714 JLINK_ReadMemEx(0x40000098, 0x4 Bytes, Flags = 0x02000004)
T9410 000:984.729   CPU_ReadMem(4 bytes @ 0x40000098)
T9410 000:984.947   Data:  00 00 00 00
T9410 000:984.973 - 0.265ms returns 4 (0x4)
T9410 000:984.990 JLINK_ReadMemEx(0x4000009C, 0x4 Bytes, Flags = 0x02000004)
T9410 000:985.008   CPU_ReadMem(4 bytes @ 0x4000009C)
T9410 000:985.234   Data:  5E 00 00 00
T9410 000:985.255 - 0.271ms returns 4 (0x4)
T9410 000:985.270 JLINK_ReadMemEx(0x400000A8, 0x4 Bytes, Flags = 0x02000004)
T9410 000:985.286   CPU_ReadMem(4 bytes @ 0x400000A8)
T9410 000:985.501   Data:  00 00 00 00
T9410 000:985.535 - 0.270ms returns 4 (0x4)
T9410 000:985.550 JLINK_ReadMemEx(0x400000AC, 0x4 Bytes, Flags = 0x02000004)
T9410 000:985.566   CPU_ReadMem(4 bytes @ 0x400000AC)
T9410 000:985.781   Data:  00 00 00 00
T9410 000:985.802 - 0.258ms returns 4 (0x4)
T9410 000:985.817 JLINK_ReadMemEx(0x400000B4, 0x4 Bytes, Flags = 0x02000004)
T9410 000:985.833   CPU_ReadMem(4 bytes @ 0x400000B4)
T9410 000:986.047   Data:  F7 01 00 00
T9410 000:986.068 - 0.257ms returns 4 (0x4)
T9410 000:986.083 JLINK_ReadMemEx(0x400000B8, 0x4 Bytes, Flags = 0x02000004)
T9410 000:986.099   CPU_ReadMem(4 bytes @ 0x400000B8)
T9410 000:986.315   Data:  F0 00 00 00
T9410 000:986.337 - 0.260ms returns 4 (0x4)
T9410 002:741.821 JLINK_ReadMemEx(0x000000D8, 0x3C Bytes, Flags = 0x02000000)
T9410 002:741.874   CPU_ReadMem(60 bytes @ 0x000000D8)
T9410 002:742.520   Data:  06 48 80 F3 08 88 06 48 80 47 06 48 00 47 FE E7 ...
T9410 002:742.569 - 0.754ms returns 60 (0x3C)
T9410 002:742.585 JLINK_ReadMemEx(0x000000D8, 0x2 Bytes, Flags = 0x02000000)
T9410 002:742.602   CPU_ReadMem(2 bytes @ 0x000000D8)
T9410 002:742.848   Data:  06 48
T9410 002:742.870 - 0.291ms returns 2 (0x2)
T9410 002:742.886 JLINK_ReadMemEx(0x000000DA, 0x2 Bytes, Flags = 0x02000000)
T9410 002:742.901   CPU_ReadMem(2 bytes @ 0x000000DA)
T9410 002:743.132   Data:  80 F3
T9410 002:743.152 - 0.272ms returns 2 (0x2)
T9410 003:314.002 JLINK_HasError()
T9410 003:314.036 JLINK_ReadReg(R0)
T9410 003:314.333 - 0.311ms returns 0xFFFFFFFF
T9410 003:314.358 JLINK_ReadReg(R1)
T9410 003:314.373 - 0.022ms returns 0xFFFFFFFF
T9410 003:314.388 JLINK_ReadReg(R2)
T9410 003:314.402 - 0.020ms returns 0xFFFFFFFF
T9410 003:314.416 JLINK_ReadReg(R3)
T9410 003:314.434 - 0.027ms returns 0xFFFFFFFF
T9410 003:314.451 JLINK_ReadReg(R4)
T9410 003:314.478 - 0.034ms returns 0xFFFFFFFF
T9410 003:314.493 JLINK_ReadReg(R5)
T9410 003:314.507 - 0.020ms returns 0xFFFFFFFF
T9410 003:314.521 JLINK_ReadReg(R6)
T9410 003:314.535 - 0.021ms returns 0xFFFFFFFF
T9410 003:314.550 JLINK_ReadReg(R7)
T9410 003:314.564 - 0.021ms returns 0xFFFFFFFF
T9410 003:314.579 JLINK_ReadReg(R8)
T9410 003:314.605 - 0.033ms returns 0xFFFFFFFF
T9410 003:314.620 JLINK_ReadReg(R9)
T9410 003:314.634 - 0.021ms returns 0xFFFFFFFF
T9410 003:314.649 JLINK_ReadReg(R10)
T9410 003:314.663 - 0.021ms returns 0xFFFFFFFF
T9410 003:314.677 JLINK_ReadReg(R11)
T9410 003:314.691 - 0.020ms returns 0xFFFFFFFF
T9410 003:314.706 JLINK_ReadReg(R12)
T9410 003:314.720 - 0.020ms returns 0xFFFFFFFF
T9410 003:314.736 JLINK_ReadReg(R13 (SP))
T9410 003:314.752 - 0.025ms returns 0x20001500
T9410 003:314.771 JLINK_ReadReg(R14)
T9410 003:314.788 - 0.026ms returns 0xFFFFFFFF
T9410 003:314.807 JLINK_ReadReg(R15 (PC))
T9410 003:314.826 - 0.027ms returns 0x000000D8
T9410 003:314.844 JLINK_ReadReg(XPSR)
T9410 003:314.859 - 0.022ms returns 0xC1000000
T9410 003:314.874 JLINK_ReadReg(MSP)
T9410 003:314.888 - 0.021ms returns 0x20001500
T9410 003:314.903 JLINK_ReadReg(PSP)
T9410 003:314.917 - 0.021ms returns 0xFFFFFFFC
T9410 003:314.932 JLINK_ReadReg(CFBP)
T9410 003:314.949 - 0.023ms returns 0x00000000
T9410 003:324.496 JLINK_ReadMemEx(0x20000087, 0x1 Bytes, Flags = 0x02000000)
T9410 003:324.554   CPU_ReadMem(1 bytes @ 0x20000087)
T9410 003:324.908   Data:  00
T9410 003:324.935 - 0.445ms returns 1 (0x1)
T9410 003:325.073 JLINK_ReadMemEx(0x20000087, 0x1 Bytes, Flags = 0x02000000)
T9410 003:325.093   CPU_ReadMem(1 bytes @ 0x20000087)
T9410 003:325.339   Data:  00
T9410 003:325.362 - 0.295ms returns 1 (0x1)
T9410 003:325.392 JLINK_ReadMemEx(0x20000087, 0x1 Bytes, Flags = 0x02000000)
T9410 003:325.411   CPU_ReadMem(1 bytes @ 0x20000087)
T9410 003:325.729   Data:  00
T9410 003:325.754 - 0.369ms returns 1 (0x1)
T9410 003:326.694 JLINK_ReadMemEx(0x200000BA, 0x2 Bytes, Flags = 0x02000000)
T9410 003:326.718   CPU_ReadMem(2 bytes @ 0x200000BA)
T9410 003:327.046   Data:  00 00
T9410 003:327.072 - 0.384ms returns 2 (0x2)
T9410 003:327.168 JLINK_ReadMemEx(0x200000BA, 0x2 Bytes, Flags = 0x02000000)
T9410 003:327.187   CPU_ReadMem(2 bytes @ 0x200000BA)
T9410 003:327.561   Data:  00 00
T9410 003:327.585 - 0.423ms returns 2 (0x2)
T9410 003:327.617 JLINK_ReadMemEx(0x200000BA, 0x2 Bytes, Flags = 0x02000000)
T9410 003:327.636   CPU_ReadMem(2 bytes @ 0x200000BA)
T9410 003:327.878   Data:  00 00
T9410 003:327.904 - 0.292ms returns 2 (0x2)
T9410 003:329.602 JLINK_ReadMemEx(0x20000088, 0x1 Bytes, Flags = 0x02000000)
T9410 003:329.630   CPU_ReadMem(1 bytes @ 0x20000088)
T9410 003:329.898   Data:  00
T9410 003:329.924 - 0.330ms returns 1 (0x1)
T9410 003:330.025 JLINK_ReadMemEx(0x20000088, 0x1 Bytes, Flags = 0x02000000)
T9410 003:330.047   CPU_ReadMem(1 bytes @ 0x20000088)
T9410 003:330.393   Data:  00
T9410 003:330.421 - 0.403ms returns 1 (0x1)
T9410 003:330.468 JLINK_ReadMemEx(0x20000088, 0x1 Bytes, Flags = 0x02000000)
T9410 003:330.485   CPU_ReadMem(1 bytes @ 0x20000088)
T9410 003:330.770   Data:  00
T9410 003:330.796 - 0.334ms returns 1 (0x1)
T9410 003:339.395 JLINK_ReadMemEx(0x200000EA, 0x2 Bytes, Flags = 0x02000000)
T9410 003:339.438   CPU_ReadMem(2 bytes @ 0x200000EA)
T9410 003:339.797   Data:  00 00
T9410 003:339.826 - 0.438ms returns 2 (0x2)
T9410 003:339.923 JLINK_ReadMemEx(0x200000EA, 0x2 Bytes, Flags = 0x02000000)
T9410 003:339.945   CPU_ReadMem(2 bytes @ 0x200000EA)
T9410 003:340.305   Data:  00 00
T9410 003:340.331 - 0.415ms returns 2 (0x2)
T9410 003:340.365 JLINK_ReadMemEx(0x200000EA, 0x2 Bytes, Flags = 0x02000000)
T9410 003:340.385   CPU_ReadMem(2 bytes @ 0x200000EA)
T9410 003:340.651   Data:  00 00
T9410 003:340.679 - 0.321ms returns 2 (0x2)
T9410 003:341.624 JLINK_ReadMemEx(0x20000026, 0x2 Bytes, Flags = 0x02000000)
T9410 003:341.651   CPU_ReadMem(2 bytes @ 0x20000026)
T9410 003:341.911   Data:  00 00
T9410 003:341.937 - 0.320ms returns 2 (0x2)
T9410 003:341.992 JLINK_ReadMemEx(0x20000026, 0x2 Bytes, Flags = 0x02000000)
T9410 003:342.012   CPU_ReadMem(2 bytes @ 0x20000026)
T9410 003:342.308   Data:  00 00
T9410 003:342.331 - 0.345ms returns 2 (0x2)
T9410 003:342.359 JLINK_ReadMemEx(0x20000026, 0x2 Bytes, Flags = 0x02000000)
T9410 003:342.377   CPU_ReadMem(2 bytes @ 0x20000026)
T9410 003:342.607   Data:  00 00
T9410 003:342.629 - 0.276ms returns 2 (0x2)
T9410 003:343.499 JLINK_ReadMemEx(0x20000028, 0x2 Bytes, Flags = 0x02000000)
T9410 003:343.525   CPU_ReadMem(2 bytes @ 0x20000028)
T9410 003:343.817   Data:  00 00
T9410 003:343.840 - 0.348ms returns 2 (0x2)
T9410 003:343.891 JLINK_ReadMemEx(0x20000028, 0x2 Bytes, Flags = 0x02000000)
T9410 003:343.910   CPU_ReadMem(2 bytes @ 0x20000028)
T9410 003:344.222   Data:  00 00
T9410 003:344.250 - 0.366ms returns 2 (0x2)
T9410 003:344.284 JLINK_ReadMemEx(0x20000028, 0x2 Bytes, Flags = 0x02000000)
T9410 003:344.305   CPU_ReadMem(2 bytes @ 0x20000028)
T9410 003:344.653   Data:  00 00
T9410 003:344.680 - 0.403ms returns 2 (0x2)
T9410 003:345.661 JLINK_ReadMemEx(0x200000BA, 0x2 Bytes, Flags = 0x02000000)
T9410 003:345.687   CPU_ReadMem(2 bytes @ 0x200000BA)
T9410 003:345.930   Data:  00 00
T9410 003:345.953 - 0.299ms returns 2 (0x2)
T9410 003:346.039 JLINK_ReadMemEx(0x200000BA, 0x2 Bytes, Flags = 0x02000000)
T9410 003:346.058   CPU_ReadMem(2 bytes @ 0x200000BA)
T9410 003:346.313   Data:  00 00
T9410 003:346.344 - 0.312ms returns 2 (0x2)
T9410 003:346.378 JLINK_ReadMemEx(0x200000BA, 0x2 Bytes, Flags = 0x02000000)
T9410 003:346.402   CPU_ReadMem(2 bytes @ 0x200000BA)
T9410 003:346.643   Data:  00 00
T9410 003:346.674 - 0.304ms returns 2 (0x2)
T9410 003:373.532 JLINK_ReadMemEx(0x2000000C, 0x4 Bytes, Flags = 0x02000000)
T9410 003:373.575   CPU_ReadMem(4 bytes @ 0x2000000C)
T9410 003:373.915   Data:  CD CC 4C 3F
T9410 003:373.942 - 0.417ms returns 4 (0x4)
T9410 003:374.007 JLINK_ReadMemEx(0x2000000C, 0x4 Bytes, Flags = 0x02000000)
T9410 003:374.028   CPU_ReadMem(4 bytes @ 0x2000000C)
T9410 003:374.333   Data:  CD CC 4C 3F
T9410 003:374.359 - 0.358ms returns 4 (0x4)
T9410 003:374.393 JLINK_ReadMemEx(0x2000000C, 0x4 Bytes, Flags = 0x02000000)
T9410 003:374.412   CPU_ReadMem(4 bytes @ 0x2000000C)
T9410 003:374.689   Data:  CD CC 4C 3F
T9410 003:374.715 - 0.329ms returns 4 (0x4)
T4C10 003:446.281 JLINK_ReadMemEx(0x000000D8, 0x2 Bytes, Flags = 0x02000000)
T4C10 003:446.319   CPU_ReadMem(2 bytes @ 0x000000D8)
T4C10 003:446.608   Data:  06 48
T4C10 003:446.629 - 0.355ms returns 2 (0x2)
T4C10 003:446.645 JLINK_HasError()
T4C10 003:446.661 JLINK_SetBPEx(Addr = 0x00004FA2, Type = 0xFFFFFFF2)
T4C10 003:446.677 - 0.022ms returns 0x00000001
T4C10 003:446.691 JLINK_HasError()
T4C10 003:446.706 JLINK_HasError()
T4C10 003:446.720 JLINK_Go()
T4C10 003:446.744   CPU_WriteMem(4 bytes @ 0xE0002000)
T4C10 003:447.015   CPU_ReadMem(4 bytes @ 0xE0001000)
T4C10 003:447.262   CPU_WriteMem(4 bytes @ 0xE0001000)
T4C10 003:447.285   CPU_WriteMem(4 bytes @ 0xE0002008)
T4C10 003:447.305   CPU_WriteMem(4 bytes @ 0xE000200C)
T4C10 003:447.917   CPU_WriteMem(4 bytes @ 0xE0001004)
T4C10 003:448.460 - 1.748ms
T4C10 003:548.807 JLINK_HasError()
T4C10 003:548.835 JLINK_IsHalted()
T4C10 003:550.648 - 1.827ms returns TRUE
T4C10 003:550.672 JLINK_HasError()
T4C10 003:550.687 JLINK_Halt()
T4C10 003:550.700 - 0.019ms returns 0x00
T4C10 003:550.714 JLINK_IsHalted()
T4C10 003:550.727 - 0.019ms returns TRUE
T4C10 003:550.741 JLINK_IsHalted()
T4C10 003:550.754 - 0.019ms returns TRUE
T4C10 003:550.767 JLINK_IsHalted()
T4C10 003:550.782 - 0.020ms returns TRUE
T4C10 003:550.796 JLINK_HasError()
T4C10 003:550.810 JLINK_ReadReg(R15 (PC))
T4C10 003:550.825 - 0.022ms returns 0x00004FA2
T4C10 003:550.839 JLINK_ReadReg(XPSR)
T4C10 003:550.853 - 0.020ms returns 0x61000000
T4C10 003:550.869 JLINK_HasError()
T4C10 003:550.883 JLINK_ClrBPEx(BPHandle = 0x00000001)
T4C10 003:550.897 - 0.020ms returns 0x00
T4C10 003:550.910 JLINK_HasError()
T4C10 003:550.927 JLINK_HasError()
T4C10 003:550.943 JLINK_ReadMemU32(0xE000ED30, 0x1 Items)
T4C10 003:550.961   CPU_ReadMem(4 bytes @ 0xE000ED30)
T4C10 003:551.211   Data:  02 00 00 00
T4C10 003:551.232 - 0.295ms returns 1 (0x1)
T4C10 003:551.247 JLINK_ReadMemU32(0xE0001028, 0x1 Items)
T4C10 003:551.262   CPU_ReadMem(4 bytes @ 0xE0001028)
T4C10 003:551.507   Data:  00 00 00 00
T4C10 003:551.542   Debug reg: DWT_FUNC[0]
T4C10 003:551.561 - 0.321ms returns 1 (0x1)
T4C10 003:551.577 JLINK_ReadMemU32(0xE0001038, 0x1 Items)
T4C10 003:551.594   CPU_ReadMem(4 bytes @ 0xE0001038)
T4C10 003:551.852   Data:  00 00 00 00
T4C10 003:551.876   Debug reg: DWT_FUNC[1]
T4C10 003:551.894 - 0.324ms returns 1 (0x1)
T4C10 003:551.935 JLINK_HasError()
T4C10 003:551.950 JLINK_ReadReg(R0)
T4C10 003:551.966 - 0.022ms returns 0x00004FA3
T4C10 003:551.980 JLINK_ReadReg(R1)
T4C10 003:551.993 - 0.020ms returns 0x20001500
T4C10 003:552.007 JLINK_ReadReg(R2)
T4C10 003:552.020 - 0.019ms returns 0x00000000
T4C10 003:552.034 JLINK_ReadReg(R3)
T4C10 003:552.048 - 0.019ms returns 0x00004F95
T4C10 003:552.061 JLINK_ReadReg(R4)
T4C10 003:552.075 - 0.019ms returns 0x000052B0
T4C10 003:552.088 JLINK_ReadReg(R5)
T4C10 003:552.102 - 0.020ms returns 0x00000001
T4C10 003:552.116 JLINK_ReadReg(R6)
T4C10 003:552.129 - 0.019ms returns 0x000052B0
T4C10 003:552.142 JLINK_ReadReg(R7)
T4C10 003:552.156 - 0.020ms returns 0xFFFFFFFF
T4C10 003:552.170 JLINK_ReadReg(R8)
T4C10 003:552.183 - 0.019ms returns 0xFFFFFFFF
T4C10 003:552.197 JLINK_ReadReg(R9)
T4C10 003:552.211 - 0.019ms returns 0xFFFFFFFF
T4C10 003:552.224 JLINK_ReadReg(R10)
T4C10 003:552.238 - 0.019ms returns 0xFFFFFFFF
T4C10 003:552.251 JLINK_ReadReg(R11)
T4C10 003:552.265 - 0.020ms returns 0xFFFFFFFF
T4C10 003:552.279 JLINK_ReadReg(R12)
T4C10 003:552.292 - 0.019ms returns 0xFFFFFFFF
T4C10 003:552.305 JLINK_ReadReg(R13 (SP))
T4C10 003:552.319 - 0.019ms returns 0x20001500
T4C10 003:552.332 JLINK_ReadReg(R14)
T4C10 003:552.345 - 0.019ms returns 0x00000A55
T4C10 003:552.359 JLINK_ReadReg(R15 (PC))
T4C10 003:552.373 - 0.020ms returns 0x00004FA2
T4C10 003:552.386 JLINK_ReadReg(XPSR)
T4C10 003:552.400 - 0.020ms returns 0x61000000
T4C10 003:552.413 JLINK_ReadReg(MSP)
T4C10 003:552.426 - 0.019ms returns 0x20001500
T4C10 003:552.440 JLINK_ReadReg(PSP)
T4C10 003:552.453 - 0.018ms returns 0xFFFFFFFC
T4C10 003:552.466 JLINK_ReadReg(CFBP)
T4C10 003:552.483 - 0.024ms returns 0x00000000
T9410 003:552.576 JLINK_ReadMemEx(0x2000000C, 0x4 Bytes, Flags = 0x02000000)
T9410 003:552.606   CPU_ReadMem(4 bytes @ 0x2000000C)
T9410 003:552.907   Data:  CD CC 4C 3F
T9410 003:552.931 - 0.361ms returns 4 (0x4)
T9410 003:552.989 JLINK_ReadMemEx(0x40000008, 0x8 Bytes, Flags = 0x02000004)
T9410 003:553.008   CPU_ReadMem(8 bytes @ 0x40000008)
T9410 003:553.297   Data:  00 00 00 00 00 00 00 00
T9410 003:553.321 - 0.338ms returns 8 (0x8)
T9410 003:553.337 JLINK_ReadMemEx(0x40000010, 0x4 Bytes, Flags = 0x02000004)
T9410 003:553.355   CPU_ReadMem(4 bytes @ 0x40000010)
T9410 003:553.651   Data:  18 08 00 00
T9410 003:553.675 - 0.344ms returns 4 (0x4)
T9410 003:553.692 JLINK_ReadMemEx(0x40000018, 0x4 Bytes, Flags = 0x02000004)
T9410 003:553.710   CPU_ReadMem(4 bytes @ 0x40000018)
T9410 003:553.933   Data:  42 A0 00 00
T9410 003:553.956 - 0.271ms returns 4 (0x4)
T9410 003:553.973 JLINK_ReadMemEx(0x40000020, 0x30 Bytes, Flags = 0x02000004)
T9410 003:553.990   CPU_ReadMem(48 bytes @ 0x40000020)
T9410 003:554.509   Data:  00 00 00 00 40 00 00 00 00 00 00 00 28 07 00 00 ...
T9410 003:554.533 - 0.567ms returns 48 (0x30)
T9410 003:554.550 JLINK_ReadMemEx(0x40000050, 0x4 Bytes, Flags = 0x02000004)
T9410 003:554.568   CPU_ReadMem(4 bytes @ 0x40000050)
T9410 003:554.805   Data:  0D 00 00 00
T9410 003:554.832 - 0.288ms returns 4 (0x4)
T9410 003:554.852 JLINK_ReadMemEx(0x4000007C, 0xC Bytes, Flags = 0x02000004)
T9410 003:554.870   CPU_ReadMem(12 bytes @ 0x4000007C)
T9410 003:555.148   Data:  93 00 00 00 FF 01 00 00 00 00 00 00
T9410 003:555.171 - 0.325ms returns 12 (0xC)
T9410 003:555.190 JLINK_ReadMemEx(0x40000088, 0x4 Bytes, Flags = 0x02000004)
T9410 003:555.209   CPU_ReadMem(4 bytes @ 0x40000088)
T9410 003:555.516   Data:  07 00 00 00
T9410 003:555.536 - 0.352ms returns 4 (0x4)
T9410 003:555.551 JLINK_ReadMemEx(0x40000090, 0x4 Bytes, Flags = 0x02000004)
T9410 003:555.566   CPU_ReadMem(4 bytes @ 0x40000090)
T9410 003:555.815   Data:  00 00 00 00
T9410 003:555.846 - 0.304ms returns 4 (0x4)
T9410 003:555.868 JLINK_ReadMemEx(0x40000098, 0x4 Bytes, Flags = 0x02000004)
T9410 003:555.892   CPU_ReadMem(4 bytes @ 0x40000098)
T9410 003:556.168   Data:  00 00 00 00
T9410 003:556.191 - 0.329ms returns 4 (0x4)
T9410 003:556.207 JLINK_ReadMemEx(0x4000009C, 0x4 Bytes, Flags = 0x02000004)
T9410 003:556.224   CPU_ReadMem(4 bytes @ 0x4000009C)
T9410 003:556.521   Data:  5E 00 00 00
T9410 003:556.542 - 0.340ms returns 4 (0x4)
T9410 003:556.557 JLINK_ReadMemEx(0x400000A8, 0x4 Bytes, Flags = 0x02000004)
T9410 003:556.572   CPU_ReadMem(4 bytes @ 0x400000A8)
T9410 003:556.857   Data:  00 00 00 00
T9410 003:556.882 - 0.331ms returns 4 (0x4)
T9410 003:556.898 JLINK_ReadMemEx(0x400000AC, 0x4 Bytes, Flags = 0x02000004)
T9410 003:556.914   CPU_ReadMem(4 bytes @ 0x400000AC)
T9410 003:557.158   Data:  00 00 00 00
T9410 003:557.179 - 0.287ms returns 4 (0x4)
T9410 003:557.194 JLINK_ReadMemEx(0x400000B4, 0x4 Bytes, Flags = 0x02000004)
T9410 003:557.209   CPU_ReadMem(4 bytes @ 0x400000B4)
T9410 003:557.459   Data:  F7 01 00 00
T9410 003:557.482 - 0.294ms returns 4 (0x4)
T9410 003:557.497 JLINK_ReadMemEx(0x400000B8, 0x4 Bytes, Flags = 0x02000004)
T9410 003:557.513   CPU_ReadMem(4 bytes @ 0x400000B8)
T9410 003:557.803   Data:  F0 00 00 00
T9410 003:557.827 - 0.336ms returns 4 (0x4)
T9410 003:580.827 JLINK_ReadMemEx(0x00004FA2, 0x2 Bytes, Flags = 0x02000000)
T9410 003:580.886   CPU_ReadMem(64 bytes @ 0x00004F80)
T9410 003:583.091    -- Updating DA cache (64 bytes @ 0x00004F80)
T9410 003:583.120    -- Read from DA cache (2 bytes @ 0x00004FA2)
T9410 003:583.140   Data:  FD F7
T9410 003:583.159 - 2.338ms returns 2 (0x2)
T9410 003:583.178 JLINK_ReadMemEx(0x00004FA4, 0x3C Bytes, Flags = 0x02000000)
T9410 003:583.200   CPU_ReadMem(64 bytes @ 0x00004FC0)
T9410 003:583.713    -- Updating DA cache (64 bytes @ 0x00004FC0)
T9410 003:583.743    -- Read from DA cache (60 bytes @ 0x00004FA4)
T9410 003:583.768   Data:  F3 FA 00 F0 1B F8 00 BF FF F7 18 FC FC E7 00 00 ...
T9410 003:583.789 - 0.619ms returns 60 (0x3C)
T9410 003:583.808 JLINK_ReadMemEx(0x00004FA4, 0x2 Bytes, Flags = 0x02000000)
T9410 003:583.827    -- Read from DA cache (2 bytes @ 0x00004FA4)
T9410 003:583.849   Data:  F3 FA
T9410 003:583.868 - 0.066ms returns 2 (0x2)
T4C10 009:515.124 JLINK_ReadMemEx(0x00004FA2, 0x2 Bytes, Flags = 0x02000000)
T4C10 009:515.197    -- Read from DA cache (2 bytes @ 0x00004FA2)
T4C10 009:515.221   Data:  FD F7
T4C10 009:515.245 - 0.129ms returns 2 (0x2)
T4C10 009:515.263 JLINK_HasError()
T4C10 009:515.281 JLINK_HasError()
T4C10 009:515.298 JLINK_Go()
T4C10 009:515.675   CPU_ReadMem(4 bytes @ 0xE0001000)
T4C10 009:516.082   CPU_WriteMem(4 bytes @ 0xE0001000)
T4C10 009:516.113   CPU_WriteMem(4 bytes @ 0xE0002008)
T4C10 009:517.149 - 1.866ms
T4C10 009:617.416 JLINK_HasError()
T4C10 009:617.553 JLINK_IsHalted()
T4C10 009:618.135 - 0.651ms returns FALSE
T4C10 009:718.409 JLINK_HasError()
T4C10 009:718.483 JLINK_IsHalted()
T4C10 009:718.830 - 0.366ms returns FALSE
T4C10 009:819.337 JLINK_HasError()
T4C10 009:819.381 JLINK_IsHalted()
T4C10 009:819.692 - 0.325ms returns FALSE
T4C10 009:920.031 JLINK_HasError()
T4C10 009:920.065 JLINK_IsHalted()
T4C10 009:920.329 - 0.276ms returns FALSE
T4C10 010:020.742 JLINK_HasError()
T4C10 010:020.808 JLINK_IsHalted()
T4C10 010:021.253 - 0.472ms returns FALSE
T4C10 010:121.883 JLINK_HasError()
T4C10 010:121.933 JLINK_HasError()
T9410 010:122.108 JLINK_ReadMemEx(0x2000000C, 0x4 Bytes, Flags = 0x02000000)
T9410 010:122.150   CPU_ReadMem(4 bytes @ 0x2000000C)
T9410 010:122.493   Data:  CD CC 4C 3F
T9410 010:122.530 - 0.430ms returns 4 (0x4)
T9410 010:122.595 JLINK_ReadMemEx(0x40000008, 0x8 Bytes, Flags = 0x02000004)
T9410 010:122.627   CPU_ReadMem(8 bytes @ 0x40000008)
T9410 010:123.063   Data:  00 00 00 00 00 00 00 00
T9410 010:123.097 - 0.510ms returns 8 (0x8)
T9410 010:123.120 JLINK_ReadMemEx(0x40000010, 0x4 Bytes, Flags = 0x02000004)
T9410 010:123.145   CPU_ReadMem(4 bytes @ 0x40000010)
T9410 010:123.607   Data:  18 08 00 00
T9410 010:123.646 - 0.534ms returns 4 (0x4)
T9410 010:123.671 JLINK_ReadMemEx(0x40000018, 0x4 Bytes, Flags = 0x02000004)
T9410 010:123.698   CPU_ReadMem(4 bytes @ 0x40000018)
T9410 010:124.118   Data:  42 A0 00 00
T9410 010:124.153 - 0.490ms returns 4 (0x4)
T9410 010:124.177 JLINK_ReadMemEx(0x40000020, 0x30 Bytes, Flags = 0x02000004)
T9410 010:124.202   CPU_ReadMem(48 bytes @ 0x40000020)
T9410 010:125.282   Data:  00 00 00 00 40 00 00 00 00 00 00 00 28 07 00 00 ...
T9410 010:125.339 - 1.171ms returns 48 (0x30)
T9410 010:125.372 JLINK_ReadMemEx(0x40000050, 0x4 Bytes, Flags = 0x02000004)
T9410 010:125.408   CPU_ReadMem(4 bytes @ 0x40000050)
T9410 010:125.857   Data:  0D 00 00 00
T9410 010:125.900 - 0.536ms returns 4 (0x4)
T9410 010:125.929 JLINK_ReadMemEx(0x4000007C, 0xC Bytes, Flags = 0x02000004)
T9410 010:125.956   CPU_ReadMem(12 bytes @ 0x4000007C)
T9410 010:126.466   Data:  93 00 00 00 FF 01 00 00 00 00 00 00
T9410 010:126.505 - 0.585ms returns 12 (0xC)
T9410 010:126.531 JLINK_ReadMemEx(0x40000088, 0x4 Bytes, Flags = 0x02000004)
T9410 010:126.557   CPU_ReadMem(4 bytes @ 0x40000088)
T9410 010:127.026   Data:  07 00 00 00
T9410 010:127.064 - 0.541ms returns 4 (0x4)
T9410 010:127.154 JLINK_ReadMemEx(0x40000090, 0x4 Bytes, Flags = 0x02000004)
T9410 010:127.180   CPU_ReadMem(4 bytes @ 0x40000090)
T9410 010:127.535   Data:  00 00 00 00
T9410 010:127.569 - 0.424ms returns 4 (0x4)
T9410 010:127.594 JLINK_ReadMemEx(0x40000098, 0x4 Bytes, Flags = 0x02000004)
T9410 010:127.619   CPU_ReadMem(4 bytes @ 0x40000098)
T9410 010:128.026   Data:  00 00 00 00
T9410 010:128.061 - 0.475ms returns 4 (0x4)
T9410 010:128.085 JLINK_ReadMemEx(0x4000009C, 0x4 Bytes, Flags = 0x02000004)
T9410 010:128.110   CPU_ReadMem(4 bytes @ 0x4000009C)
T9410 010:128.464   Data:  5E 00 00 00
T9410 010:128.501 - 0.423ms returns 4 (0x4)
T9410 010:128.525 JLINK_ReadMemEx(0x400000A8, 0x4 Bytes, Flags = 0x02000004)
T9410 010:128.549   CPU_ReadMem(4 bytes @ 0x400000A8)
T9410 010:128.927   Data:  00 00 00 00
T9410 010:128.966 - 0.449ms returns 4 (0x4)
T9410 010:128.993 JLINK_ReadMemEx(0x400000AC, 0x4 Bytes, Flags = 0x02000004)
T9410 010:129.020   CPU_ReadMem(4 bytes @ 0x400000AC)
T9410 010:129.423   Data:  00 00 00 00
T9410 010:129.457 - 0.471ms returns 4 (0x4)
T9410 010:129.484 JLINK_ReadMemEx(0x400000B4, 0x4 Bytes, Flags = 0x02000004)
T9410 010:129.509   CPU_ReadMem(4 bytes @ 0x400000B4)
T9410 010:129.980   Data:  F7 01 00 00
T9410 010:130.013 - 0.537ms returns 4 (0x4)
T9410 010:130.038 JLINK_ReadMemEx(0x400000B8, 0x4 Bytes, Flags = 0x02000004)
T9410 010:130.062   CPU_ReadMem(4 bytes @ 0x400000B8)
T9410 010:130.458   Data:  F0 00 00 00
T9410 010:130.498 - 0.468ms returns 4 (0x4)
T4C10 010:132.274 JLINK_IsHalted()
T4C10 010:132.655 - 0.396ms returns FALSE
T4C10 010:233.138 JLINK_HasError()
T4C10 010:233.199 JLINK_IsHalted()
T4C10 010:233.570 - 0.398ms returns FALSE
T4C10 010:334.332 JLINK_HasError()
T4C10 010:334.500 JLINK_IsHalted()
T4C10 010:335.122 - 0.689ms returns FALSE
T4C10 010:436.376 JLINK_HasError()
T4C10 010:436.492 JLINK_IsHalted()
T4C10 010:436.994 - 0.555ms returns FALSE
T4C10 010:537.928 JLINK_HasError()
T4C10 010:538.055 JLINK_IsHalted()
T4C10 010:538.651 - 0.667ms returns FALSE
T4C10 010:639.617 JLINK_HasError()
T4C10 010:639.683 JLINK_HasError()
T9410 010:639.819 JLINK_ReadMemEx(0x2000000C, 0x4 Bytes, Flags = 0x02000000)
T9410 010:639.854   CPU_ReadMem(4 bytes @ 0x2000000C)
T9410 010:640.221   Data:  CD CC 4C 3F
T9410 010:640.250 - 0.438ms returns 4 (0x4)
T9410 010:640.295 JLINK_ReadMemEx(0x40000008, 0x8 Bytes, Flags = 0x02000004)
T9410 010:640.317   CPU_ReadMem(8 bytes @ 0x40000008)
T9410 010:640.673   Data:  00 00 00 00 00 00 00 00
T9410 010:640.702 - 0.415ms returns 8 (0x8)
T9410 010:640.722 JLINK_ReadMemEx(0x40000010, 0x4 Bytes, Flags = 0x02000004)
T9410 010:640.744   CPU_ReadMem(4 bytes @ 0x40000010)
T9410 010:641.077   Data:  18 08 00 00
T9410 010:641.106 - 0.391ms returns 4 (0x4)
T9410 010:641.126 JLINK_ReadMemEx(0x40000018, 0x4 Bytes, Flags = 0x02000004)
T9410 010:641.148   CPU_ReadMem(4 bytes @ 0x40000018)
T9410 010:641.498   Data:  42 A0 00 00
T9410 010:641.529 - 0.410ms returns 4 (0x4)
T9410 010:641.548 JLINK_ReadMemEx(0x40000020, 0x30 Bytes, Flags = 0x02000004)
T9410 010:641.571   CPU_ReadMem(48 bytes @ 0x40000020)
T9410 010:642.114   Data:  00 00 00 00 40 00 00 00 00 00 00 00 28 07 00 00 ...
T9410 010:642.149 - 0.608ms returns 48 (0x30)
T9410 010:642.169 JLINK_ReadMemEx(0x40000050, 0x4 Bytes, Flags = 0x02000004)
T9410 010:642.191   CPU_ReadMem(4 bytes @ 0x40000050)
T9410 010:642.458   Data:  0D 00 00 00
T9410 010:642.487 - 0.325ms returns 4 (0x4)
T9410 010:642.506 JLINK_ReadMemEx(0x4000007C, 0xC Bytes, Flags = 0x02000004)
T9410 010:642.529   CPU_ReadMem(12 bytes @ 0x4000007C)
T9410 010:642.833   Data:  93 00 00 00 FF 01 00 00 00 00 00 00
T9410 010:642.862 - 0.363ms returns 12 (0xC)
T9410 010:642.881 JLINK_ReadMemEx(0x40000088, 0x4 Bytes, Flags = 0x02000004)
T9410 010:642.902   CPU_ReadMem(4 bytes @ 0x40000088)
T9410 010:643.204   Data:  07 00 00 00
T9410 010:643.229 - 0.355ms returns 4 (0x4)
T9410 010:643.248 JLINK_ReadMemEx(0x40000090, 0x4 Bytes, Flags = 0x02000004)
T9410 010:643.267   CPU_ReadMem(4 bytes @ 0x40000090)
T9410 010:643.557   Data:  00 00 00 00
T9410 010:643.583 - 0.343ms returns 4 (0x4)
T9410 010:643.606 JLINK_ReadMemEx(0x40000098, 0x4 Bytes, Flags = 0x02000004)
T9410 010:643.625   CPU_ReadMem(4 bytes @ 0x40000098)
T9410 010:644.064   Data:  00 00 00 00
T9410 010:644.093 - 0.494ms returns 4 (0x4)
T9410 010:644.114 JLINK_ReadMemEx(0x4000009C, 0x4 Bytes, Flags = 0x02000004)
T9410 010:644.135   CPU_ReadMem(4 bytes @ 0x4000009C)
T9410 010:644.496   Data:  5E 00 00 00
T9410 010:644.526 - 0.419ms returns 4 (0x4)
T9410 010:644.548 JLINK_ReadMemEx(0x400000A8, 0x4 Bytes, Flags = 0x02000004)
T9410 010:644.569   CPU_ReadMem(4 bytes @ 0x400000A8)
T9410 010:644.858   Data:  00 00 00 00
T9410 010:644.884 - 0.343ms returns 4 (0x4)
T9410 010:644.904 JLINK_ReadMemEx(0x400000AC, 0x4 Bytes, Flags = 0x02000004)
T9410 010:644.923   CPU_ReadMem(4 bytes @ 0x400000AC)
T9410 010:645.168   Data:  00 00 00 00
T9410 010:645.193 - 0.296ms returns 4 (0x4)
T9410 010:645.213 JLINK_ReadMemEx(0x400000B4, 0x4 Bytes, Flags = 0x02000004)
T9410 010:645.231   CPU_ReadMem(4 bytes @ 0x400000B4)
T9410 010:645.523   Data:  F7 01 00 00
T9410 010:645.548 - 0.342ms returns 4 (0x4)
T9410 010:645.566 JLINK_ReadMemEx(0x400000B8, 0x4 Bytes, Flags = 0x02000004)
T9410 010:645.584   CPU_ReadMem(4 bytes @ 0x400000B8)
T9410 010:645.846   Data:  F0 00 00 00
T9410 010:645.874 - 0.315ms returns 4 (0x4)
T4C10 010:646.346 JLINK_IsHalted()
T4C10 010:646.628 - 0.295ms returns FALSE
T4C10 010:747.321 JLINK_HasError()
T4C10 010:747.479 JLINK_IsHalted()
T4C10 010:748.053 - 0.633ms returns FALSE
T4C10 010:848.261 JLINK_HasError()
T4C10 010:848.306 JLINK_IsHalted()
T4C10 010:848.637 - 0.349ms returns FALSE
T4C10 010:948.923 JLINK_HasError()
T4C10 010:949.019 JLINK_IsHalted()
T4C10 010:949.392 - 0.397ms returns FALSE
T4C10 011:049.969 JLINK_HasError()
T4C10 011:050.013 JLINK_IsHalted()
T4C10 011:050.342 - 0.346ms returns FALSE
T4C10 011:151.386 JLINK_HasError()
T4C10 011:151.483 JLINK_IsHalted()
T4C10 011:151.989 - 0.553ms returns FALSE
T4C10 011:253.172 JLINK_HasError()
T4C10 011:253.222 JLINK_HasError()
T9410 011:253.397 JLINK_ReadMemEx(0x2000000C, 0x4 Bytes, Flags = 0x02000000)
T9410 011:253.442   CPU_ReadMem(4 bytes @ 0x2000000C)
T9410 011:253.907   Data:  CD CC 4C 3F
T9410 011:253.945 - 0.556ms returns 4 (0x4)
T9410 011:254.003 JLINK_ReadMemEx(0x40000008, 0x8 Bytes, Flags = 0x02000004)
T9410 011:254.035   CPU_ReadMem(8 bytes @ 0x40000008)
T9410 011:254.520   Data:  00 00 00 00 00 00 00 00
T9410 011:254.589 - 0.594ms returns 8 (0x8)
T9410 011:254.616 JLINK_ReadMemEx(0x40000010, 0x4 Bytes, Flags = 0x02000004)
T9410 011:254.645   CPU_ReadMem(4 bytes @ 0x40000010)
T9410 011:255.010   Data:  18 08 00 00
T9410 011:255.046 - 0.439ms returns 4 (0x4)
T9410 011:255.069 JLINK_ReadMemEx(0x40000018, 0x4 Bytes, Flags = 0x02000004)
T9410 011:255.095   CPU_ReadMem(4 bytes @ 0x40000018)
T9410 011:255.408   Data:  42 A0 00 00
T9410 011:255.442 - 0.381ms returns 4 (0x4)
T9410 011:255.465 JLINK_ReadMemEx(0x40000020, 0x30 Bytes, Flags = 0x02000004)
T9410 011:255.489   CPU_ReadMem(48 bytes @ 0x40000020)
T9410 011:255.958   Data:  00 00 00 00 40 00 00 00 00 00 00 00 28 07 00 00 ...
T9410 011:255.990 - 0.535ms returns 48 (0x30)
T9410 011:256.014 JLINK_ReadMemEx(0x40000050, 0x4 Bytes, Flags = 0x02000004)
T9410 011:256.037   CPU_ReadMem(4 bytes @ 0x40000050)
T9410 011:256.339   Data:  0D 00 00 00
T9410 011:256.371 - 0.366ms returns 4 (0x4)
T9410 011:256.393 JLINK_ReadMemEx(0x4000007C, 0xC Bytes, Flags = 0x02000004)
T9410 011:256.415   CPU_ReadMem(12 bytes @ 0x4000007C)
T9410 011:256.825   Data:  93 00 00 00 FF 01 00 00 00 00 00 00
T9410 011:256.855 - 0.471ms returns 12 (0xC)
T9410 011:256.876 JLINK_ReadMemEx(0x40000088, 0x4 Bytes, Flags = 0x02000004)
T9410 011:256.899   CPU_ReadMem(4 bytes @ 0x40000088)
T9410 011:257.208   Data:  07 00 00 00
T9410 011:257.239 - 0.371ms returns 4 (0x4)
T9410 011:257.260 JLINK_ReadMemEx(0x40000090, 0x4 Bytes, Flags = 0x02000004)
T9410 011:257.282   CPU_ReadMem(4 bytes @ 0x40000090)
T9410 011:257.629   Data:  00 00 00 00
T9410 011:257.658 - 0.407ms returns 4 (0x4)
T9410 011:257.679 JLINK_ReadMemEx(0x40000098, 0x4 Bytes, Flags = 0x02000004)
T9410 011:257.700   CPU_ReadMem(4 bytes @ 0x40000098)
T9410 011:257.969   Data:  00 00 00 00
T9410 011:257.995 - 0.324ms returns 4 (0x4)
T9410 011:258.014 JLINK_ReadMemEx(0x4000009C, 0x4 Bytes, Flags = 0x02000004)
T9410 011:258.034   CPU_ReadMem(4 bytes @ 0x4000009C)
T9410 011:258.398   Data:  5E 00 00 00
T9410 011:258.430 - 0.437ms returns 4 (0x4)
T9410 011:258.468 JLINK_ReadMemEx(0x400000A8, 0x4 Bytes, Flags = 0x02000004)
T9410 011:258.489   CPU_ReadMem(4 bytes @ 0x400000A8)
T9410 011:258.747   Data:  00 00 00 00
T9410 011:258.777 - 0.317ms returns 4 (0x4)
T9410 011:258.799 JLINK_ReadMemEx(0x400000AC, 0x4 Bytes, Flags = 0x02000004)
T9410 011:258.820   CPU_ReadMem(4 bytes @ 0x400000AC)
T9410 011:259.185   Data:  00 00 00 00
T9410 011:259.217 - 0.427ms returns 4 (0x4)
T9410 011:259.242 JLINK_ReadMemEx(0x400000B4, 0x4 Bytes, Flags = 0x02000004)
T9410 011:259.269   CPU_ReadMem(4 bytes @ 0x400000B4)
T9410 011:259.657   Data:  F7 01 00 00
T9410 011:259.688 - 0.454ms returns 4 (0x4)
T9410 011:259.711 JLINK_ReadMemEx(0x400000B8, 0x4 Bytes, Flags = 0x02000004)
T9410 011:259.733   CPU_ReadMem(4 bytes @ 0x400000B8)
T9410 011:259.996   Data:  F0 00 00 00
T9410 011:260.032 - 0.329ms returns 4 (0x4)
T4C10 011:260.719 JLINK_IsHalted()
T4C10 011:261.021 - 0.317ms returns FALSE
T4C10 011:361.871 JLINK_HasError()
T4C10 011:361.929 JLINK_IsHalted()
T4C10 011:362.431 - 0.526ms returns FALSE
T4C10 011:462.865 JLINK_HasError()
T4C10 011:462.958 JLINK_IsHalted()
T4C10 011:463.394 - 0.516ms returns FALSE
T4C10 011:563.946 JLINK_HasError()
T4C10 011:564.093 JLINK_IsHalted()
T4C10 011:564.706 - 0.684ms returns FALSE
T4C10 011:665.718 JLINK_HasError()
T4C10 011:665.830 JLINK_IsHalted()
T4C10 011:666.338 - 0.559ms returns FALSE
T4C10 011:767.372 JLINK_HasError()
T4C10 011:767.415 JLINK_HasError()
T9410 011:767.530 JLINK_ReadMemEx(0x2000000C, 0x4 Bytes, Flags = 0x02000000)
T9410 011:767.569   CPU_ReadMem(4 bytes @ 0x2000000C)
T9410 011:768.040   Data:  CD CC 4C 3F
T9410 011:768.068 - 0.547ms returns 4 (0x4)
T9410 011:768.123 JLINK_ReadMemEx(0x40000008, 0x8 Bytes, Flags = 0x02000004)
T9410 011:768.149   CPU_ReadMem(8 bytes @ 0x40000008)
T9410 011:768.706   Data:  00 00 00 00 00 00 00 00
T9410 011:768.735 - 0.620ms returns 8 (0x8)
T9410 011:768.756 JLINK_ReadMemEx(0x40000010, 0x4 Bytes, Flags = 0x02000004)
T9410 011:768.781   CPU_ReadMem(4 bytes @ 0x40000010)
T9410 011:769.229   Data:  18 08 00 00
T9410 011:769.263 - 0.516ms returns 4 (0x4)
T9410 011:769.288 JLINK_ReadMemEx(0x40000018, 0x4 Bytes, Flags = 0x02000004)
T9410 011:769.312   CPU_ReadMem(4 bytes @ 0x40000018)
T9410 011:769.711   Data:  42 A0 00 00
T9410 011:769.745 - 0.465ms returns 4 (0x4)
T9410 011:769.768 JLINK_ReadMemEx(0x40000020, 0x30 Bytes, Flags = 0x02000004)
T9410 011:769.800   CPU_ReadMem(48 bytes @ 0x40000020)
T9410 011:770.326   Data:  00 00 00 00 40 00 00 00 00 00 00 00 28 07 00 00 ...
T9410 011:770.367 - 0.607ms returns 48 (0x30)
T9410 011:770.392 JLINK_ReadMemEx(0x40000050, 0x4 Bytes, Flags = 0x02000004)
T9410 011:770.418   CPU_ReadMem(4 bytes @ 0x40000050)
T9410 011:770.815   Data:  0D 00 00 00
T9410 011:770.848 - 0.465ms returns 4 (0x4)
T9410 011:770.870 JLINK_ReadMemEx(0x4000007C, 0xC Bytes, Flags = 0x02000004)
T9410 011:770.894   CPU_ReadMem(12 bytes @ 0x4000007C)
T9410 011:771.425   Data:  93 00 00 00 FF 01 00 00 00 00 00 00
T9410 011:771.505 - 0.643ms returns 12 (0xC)
T9410 011:771.532 JLINK_ReadMemEx(0x40000088, 0x4 Bytes, Flags = 0x02000004)
T9410 011:771.562   CPU_ReadMem(4 bytes @ 0x40000088)
T9410 011:772.051   Data:  07 00 00 00
T9410 011:772.096 - 0.573ms returns 4 (0x4)
T9410 011:772.123 JLINK_ReadMemEx(0x40000090, 0x4 Bytes, Flags = 0x02000004)
T9410 011:772.151   CPU_ReadMem(4 bytes @ 0x40000090)
T9410 011:772.620   Data:  00 00 00 00
T9410 011:772.664 - 0.550ms returns 4 (0x4)
T9410 011:772.691 JLINK_ReadMemEx(0x40000098, 0x4 Bytes, Flags = 0x02000004)
T9410 011:772.719   CPU_ReadMem(4 bytes @ 0x40000098)
T9410 011:773.141   Data:  00 00 00 00
T9410 011:773.177 - 0.495ms returns 4 (0x4)
T9410 011:773.202 JLINK_ReadMemEx(0x4000009C, 0x4 Bytes, Flags = 0x02000004)
T9410 011:773.228   CPU_ReadMem(4 bytes @ 0x4000009C)
T9410 011:773.750   Data:  5E 00 00 00
T9410 011:773.787 - 0.594ms returns 4 (0x4)
T9410 011:773.812 JLINK_ReadMemEx(0x400000A8, 0x4 Bytes, Flags = 0x02000004)
T9410 011:773.838   CPU_ReadMem(4 bytes @ 0x400000A8)
T9410 011:774.312   Data:  00 00 00 00
T9410 011:774.347 - 0.544ms returns 4 (0x4)
T9410 011:774.371 JLINK_ReadMemEx(0x400000AC, 0x4 Bytes, Flags = 0x02000004)
T9410 011:774.397   CPU_ReadMem(4 bytes @ 0x400000AC)
T9410 011:774.843   Data:  00 00 00 00
T9410 011:774.878 - 0.516ms returns 4 (0x4)
T9410 011:774.902 JLINK_ReadMemEx(0x400000B4, 0x4 Bytes, Flags = 0x02000004)
T9410 011:774.928   CPU_ReadMem(4 bytes @ 0x400000B4)
T9410 011:775.306   Data:  F7 01 00 00
T9410 011:775.342 - 0.448ms returns 4 (0x4)
T9410 011:775.369 JLINK_ReadMemEx(0x400000B8, 0x4 Bytes, Flags = 0x02000004)
T9410 011:775.395   CPU_ReadMem(4 bytes @ 0x400000B8)
T9410 011:775.793   Data:  F0 00 00 00
T9410 011:775.830 - 0.469ms returns 4 (0x4)
T4C10 011:776.476 JLINK_IsHalted()
T4C10 011:776.950 - 0.507ms returns FALSE
T4C10 011:877.651 JLINK_HasError()
T4C10 011:877.686 JLINK_IsHalted()
T4C10 011:878.097 - 0.425ms returns FALSE
T4C10 011:978.480 JLINK_HasError()
T4C10 011:978.520 JLINK_IsHalted()
T4C10 011:978.837 - 0.330ms returns FALSE
T4C10 012:079.595 JLINK_HasError()
T4C10 012:079.651 JLINK_IsHalted()
T4C10 012:079.901 - 0.264ms returns FALSE
T4C10 012:180.650 JLINK_HasError()
T4C10 012:180.745 JLINK_IsHalted()
T4C10 012:181.235 - 0.538ms returns FALSE
T9410 012:260.590 JLINK_ReadMemEx(0x00004FA2, 0x2 Bytes, Flags = 0x02000000)
T9410 012:260.658   CPU_ReadMem(2 bytes @ 0x00004FA2)
T9410 012:260.999   Data:  FD F7
T9410 012:261.059 - 0.477ms returns 2 (0x2)
T9410 012:261.087 JLINK_ReadMemEx(0x00004FA4, 0x2 Bytes, Flags = 0x02000000)
T9410 012:261.117   CPU_ReadMem(2 bytes @ 0x00004FA4)
T9410 012:261.379   Data:  F3 FA
T9410 012:261.414 - 0.334ms returns 2 (0x2)
T4C10 012:281.571 JLINK_HasError()
T4C10 012:281.620 JLINK_HasError()
T9410 012:356.973 JLINK_ReadMemEx(0x2000000C, 0x4 Bytes, Flags = 0x02000000)
T9410 012:357.027   CPU_ReadMem(4 bytes @ 0x2000000C)
T9410 012:357.300   Data:  CD CC 4C 3F
T9410 012:357.343 - 0.379ms returns 4 (0x4)
T9410 012:357.406 JLINK_ReadMemEx(0x40000008, 0x8 Bytes, Flags = 0x02000004)
T9410 012:357.434   CPU_ReadMem(8 bytes @ 0x40000008)
T9410 012:357.784   Data:  00 00 00 00 00 00 00 00
T9410 012:357.817 - 0.419ms returns 8 (0x8)
T9410 012:357.839 JLINK_ReadMemEx(0x40000010, 0x4 Bytes, Flags = 0x02000004)
T9410 012:357.861   CPU_ReadMem(4 bytes @ 0x40000010)
T9410 012:358.098   Data:  18 08 00 00
T9410 012:358.125 - 0.294ms returns 4 (0x4)
T9410 012:358.145 JLINK_ReadMemEx(0x40000018, 0x4 Bytes, Flags = 0x02000004)
T9410 012:358.166   CPU_ReadMem(4 bytes @ 0x40000018)
T9410 012:358.392   Data:  42 A0 00 00
T9410 012:358.419 - 0.281ms returns 4 (0x4)
T9410 012:358.438 JLINK_ReadMemEx(0x40000020, 0x30 Bytes, Flags = 0x02000004)
T9410 012:358.457   CPU_ReadMem(48 bytes @ 0x40000020)
T9410 012:358.971   Data:  00 00 00 00 40 00 00 00 00 00 00 00 28 07 00 00 ...
T9410 012:358.996 - 0.565ms returns 48 (0x30)
T9410 012:359.014 JLINK_ReadMemEx(0x40000050, 0x4 Bytes, Flags = 0x02000004)
T9410 012:359.033   CPU_ReadMem(4 bytes @ 0x40000050)
T9410 012:359.242   Data:  0D 00 00 00
T9410 012:359.266 - 0.260ms returns 4 (0x4)
T9410 012:359.285 JLINK_ReadMemEx(0x4000007C, 0xC Bytes, Flags = 0x02000004)
T9410 012:359.303   CPU_ReadMem(12 bytes @ 0x4000007C)
T9410 012:359.616   Data:  93 00 00 00 FF 01 00 00 00 00 00 00
T9410 012:359.643 - 0.365ms returns 12 (0xC)
T9410 012:359.662 JLINK_ReadMemEx(0x40000088, 0x4 Bytes, Flags = 0x02000004)
T9410 012:359.681   CPU_ReadMem(4 bytes @ 0x40000088)
T9410 012:359.985   Data:  07 00 00 00
T9410 012:360.009 - 0.355ms returns 4 (0x4)
T9410 012:360.027 JLINK_ReadMemEx(0x40000090, 0x4 Bytes, Flags = 0x02000004)
T9410 012:360.045   CPU_ReadMem(4 bytes @ 0x40000090)
T9410 012:360.360   Data:  00 00 00 00
T9410 012:360.384 - 0.364ms returns 4 (0x4)
